!Mini-Circuits
!Created: 08-07-2018 at 13:35:45
!MODEL: NCS1-332+
!S/N: Unit 1
!Remarks: Auto port extension applied.
!Port Config: Port1->PrimaryDot, Port2->SecondaryDot, Port3->Secondary.
# MHZ S DB R 50
!Frequency     
!                   S11 dB    S11 DEG     S12 dB    S12 DEG     S13 dB    S13 DEG
!                   S21 dB    S21 DEG     S22 dB    S22 DEG     S23 dB    S23 DEG
!                   S31 dB    S31 DEG     S32 dB    S32 DEG     S33 dB    S33 DEG
 100.0000    
              -1.177773E-001 -4.019202E+001 -2.339646E+001 -3.188138E+001 -2.469245E+001  1.473473E+002
              -2.340540E+001 -3.188422E+001 -5.126249E-001  1.568803E+002 -2.891245E+001  7.097929E+001
              -2.469277E+001  1.473426E+002 -2.890689E+001  7.098890E+001 -2.873532E-001  1.634118E+002
 110.0000    
              -1.498108E-001 -4.450062E+001 -2.174746E+001 -3.527176E+001 -2.304737E+001  1.445516E+002
              -2.175352E+001 -3.526868E+001 -5.329291E-001  1.545826E+002 -2.854116E+001  7.067570E+001
              -2.305130E+001  1.445589E+002 -2.853910E+001  7.065312E+001 -3.061857E-001  1.617755E+002
 120.0000    
              -1.894626E-001 -4.888314E+001 -2.024275E+001 -3.869654E+001 -2.155073E+001  1.416835E+002
              -2.024904E+001 -3.869077E+001 -5.571132E-001  1.522706E+002 -2.828751E+001  7.073747E+001
              -2.155279E+001  1.416874E+002 -2.828494E+001  7.075201E+001 -3.286753E-001  1.601299E+002
 130.0000    
              -2.383418E-001 -5.334981E+001 -1.886275E+001 -4.215958E+001 -2.017396E+001  1.387270E+002
              -1.886945E+001 -4.216167E+001 -5.833881E-001  1.499448E+002 -2.812983E+001  7.136503E+001
              -2.017509E+001  1.387211E+002 -2.812411E+001  7.135596E+001 -3.532860E-001  1.584740E+002
 140.0000    
              -2.975678E-001 -5.790458E+001 -1.759082E+001 -4.569073E+001 -1.890178E+001  1.356813E+002
              -1.759817E+001 -4.569378E+001 -6.137429E-001  1.476098E+002 -2.804403E+001  7.263051E+001
              -1.890336E+001  1.356792E+002 -2.803975E+001  7.264361E+001 -3.799857E-001  1.568069E+002
 150.0000    
              -3.683890E-001 -6.254770E+001 -1.641294E+001 -4.927319E+001 -1.772172E+001  1.325674E+002
              -1.642006E+001 -4.927727E+001 -6.475891E-001  1.452652E+002 -2.800951E+001  7.472923E+001
              -1.772366E+001  1.325660E+002 -2.800352E+001  7.472572E+001 -4.099182E-001  1.551317E+002
 160.0000    
              -4.519629E-001 -6.727119E+001 -1.532227E+001 -5.290302E+001 -1.662590E+001  1.293811E+002
              -1.532771E+001 -5.290171E+001 -6.876500E-001  1.429095E+002 -2.798647E+001  7.773032E+001
              -1.662807E+001  1.293827E+002 -2.798265E+001  7.773174E+001 -4.430952E-001  1.534471E+002
 170.0000    
              -5.506741E-001 -7.208136E+001 -1.430814E+001 -5.659850E+001 -1.560654E+001  1.261204E+002
              -1.431269E+001 -5.659509E+001 -7.343252E-001  1.405431E+002 -2.793618E+001  8.173846E+001
              -1.560767E+001  1.261247E+002 -2.793019E+001  8.174202E+001 -4.814419E-001  1.517620E+002
 180.0000    
              -6.637169E-001 -7.697813E+001 -1.336382E+001 -6.032868E+001 -1.465535E+001  1.227994E+002
              -1.336942E+001 -6.033045E+001 -7.868962E-001  1.381808E+002 -2.778713E+001  8.671947E+001
              -1.465662E+001  1.228008E+002 -2.778282E+001  8.671073E+001 -5.245132E-001  1.500753E+002
 190.0000    
              -7.932816E-001 -8.196103E+001 -1.248558E+001 -6.410760E+001 -1.376944E+001  1.194156E+002
              -1.249178E+001 -6.410986E+001 -8.462392E-001  1.358184E+002 -2.748549E+001  9.241096E+001
              -1.377148E+001  1.194156E+002 -2.748084E+001  9.239972E+001 -5.725058E-001  1.483885E+002
 200.0000    
              -9.392660E-001 -8.703288E+001 -1.166958E+001 -6.792997E+001 -1.294459E+001  1.159748E+002
              -1.167430E+001 -6.793286E+001 -9.130443E-001  1.334674E+002 -2.698268E+001  9.838474E+001
              -1.294581E+001  1.159783E+002 -2.697945E+001  9.838783E+001 -6.266523E-001  1.467060E+002
 210.0000    
              -1.105584E+000 -9.218180E+001 -1.091289E+001 -7.177911E+001 -1.217699E+001  1.124906E+002
              -1.091775E+001 -7.177998E+001 -9.871933E-001  1.311292E+002 -2.627936E+001  1.041104E+002
              -1.217818E+001  1.124953E+002 -2.627758E+001  1.041057E+002 -6.865880E-001  1.450319E+002
 220.0000    
              -1.290854E+000 -9.739000E+001 -1.021008E+001 -7.565727E+001 -1.146245E+001  1.089695E+002
              -1.021491E+001 -7.565254E+001 -1.069834E+000  1.288126E+002 -2.540252E+001  1.091096E+002
              -1.146349E+001  1.089781E+002 -2.540148E+001  1.091155E+002 -7.517064E-001  1.433716E+002
 230.0000    
              -1.496135E+000 -1.026644E+002 -9.562060E+000 -7.954156E+001 -1.080138E+001  1.054347E+002
              -9.565823E+000 -7.953876E+001 -1.161409E+000  1.265256E+002 -2.441765E+001  1.131326E+002
              -1.080186E+001  1.054341E+002 -2.441328E+001  1.131271E+002 -8.240343E-001  1.417342E+002
 240.0000    
              -1.722625E+000 -1.079815E+002 -8.964173E+000 -8.342458E+001 -1.018959E+001  1.018794E+002
              -8.967415E+000 -8.342586E+001 -1.262265E+000  1.242719E+002 -2.337395E+001  1.160688E+002
              -1.019005E+001  1.018831E+002 -2.336998E+001  1.160636E+002 -9.025845E-001  1.401122E+002
 250.0000    
              -1.968574E+000 -1.133379E+002 -8.413662E+000 -8.729529E+001 -9.625009E+000  9.832613E+001
              -8.416631E+000 -8.729430E+001 -1.370911E+000  1.220612E+002 -2.232167E+001  1.179999E+002
              -9.625424E+000  9.833265E+001 -2.231884E+001  1.180139E+002 -9.869345E-001  1.385219E+002
 260.0000    
              -2.235071E+000 -1.187314E+002 -7.907681E+000 -9.114690E+001 -9.104166E+000  9.478588E+001
              -7.909227E+000 -9.115209E+001 -1.487099E+000  1.198906E+002 -2.129167E+001  1.190578E+002
              -9.104648E+000  9.479139E+001 -2.128853E+001  1.190547E+002 -1.076811E+000  1.369575E+002
 270.0000    
              -2.521319E+000 -1.241384E+002 -7.445034E+000 -9.496145E+001 -8.626384E+000  9.127927E+001
              -7.447301E+000 -9.496452E+001 -1.609404E+000  1.177765E+002 -2.030821E+001  1.194095E+002
              -8.626669E+000  9.128336E+001 -2.030454E+001  1.194059E+002 -1.170984E+000  1.354245E+002
 280.0000    
              -2.825313E+000 -1.295540E+002 -7.023303E+000 -9.873043E+001 -8.188342E+000  8.780078E+001
              -7.025612E+000 -9.873125E+001 -1.738281E+000  1.157202E+002 -1.937697E+001  1.191695E+002
              -8.189351E+000  8.780430E+001 -1.937252E+001  1.191611E+002 -1.270401E+000  1.339286E+002
 290.0000    
              -3.146733E+000 -1.349751E+002 -6.640825E+000 -1.024380E+002 -7.788694E+000  8.437005E+001
              -6.642920E+000 -1.024452E+002 -1.872404E+000  1.137242E+002 -1.850679E+001  1.184738E+002
              -7.789205E+000  8.437228E+001 -1.850304E+001  1.184613E+002 -1.372874E+000  1.324781E+002
 300.0000    
              -3.482552E+000 -1.403958E+002 -6.292858E+000 -1.060807E+002 -7.426332E+000  8.099813E+001
              -6.295321E+000 -1.060855E+002 -2.010262E+000  1.117983E+002 -1.769764E+001  1.174237E+002
              -7.426685E+000  8.100194E+001 -1.769297E+001  1.174216E+002 -1.480217E+000  1.310680E+002
 310.0000    
              -3.833293E+000 -1.458058E+002 -5.980302E+000 -1.096608E+002 -7.096237E+000  7.768896E+001
              -5.982179E+000 -1.096648E+002 -2.152174E+000  1.099368E+002 -1.694711E+001  1.160950E+002
              -7.096566E+000  7.768867E+001 -1.694396E+001  1.160881E+002 -1.588025E+000  1.297022E+002
 320.0000    
              -4.194817E+000 -1.511916E+002 -5.699440E+000 -1.131527E+002 -6.797417E+000  7.445610E+001
              -5.699378E+000 -1.131570E+002 -2.295926E+000  1.081458E+002 -1.625500E+001  1.145659E+002
              -6.796905E+000  7.445874E+001 -1.625255E+001  1.145626E+002 -1.697352E+000  1.283819E+002
 330.0000    
              -4.565960E+000 -1.565665E+002 -5.445013E+000 -1.165587E+002 -6.526838E+000  7.130056E+001
              -5.445404E+000 -1.165639E+002 -2.439896E+000  1.064271E+002 -1.561535E+001  1.128964E+002
              -6.527093E+000  7.130349E+001 -1.561245E+001  1.128899E+002 -1.808261E+000  1.271124E+002
 340.0000    
              -4.944489E+000 -1.619131E+002 -5.218507E+000 -1.198652E+002 -6.283823E+000  6.822863E+001
              -5.218907E+000 -1.198742E+002 -2.583658E+000  1.047868E+002 -1.502691E+001  1.111278E+002
              -6.282826E+000  6.823122E+001 -1.502441E+001  1.111225E+002 -1.918140E+000  1.258852E+002
 350.0000    
              -5.327924E+000 -1.672433E+002 -5.015015E+000 -1.230769E+002 -6.064370E+000  6.525009E+001
              -5.016387E+000 -1.230909E+002 -2.726233E+000  1.032135E+002 -1.448447E+001  1.093003E+002
              -6.063725E+000  6.525026E+001 -1.448089E+001  1.092963E+002 -2.028653E+000  1.247116E+002
 360.0000    
              -5.714767E+000 -1.725412E+002 -4.835489E+000 -1.261949E+002 -5.867313E+000  6.235952E+001
              -4.834413E+000 -1.262018E+002 -2.866381E+000  1.017057E+002 -1.398480E+001  1.074386E+002
              -5.866114E+000  6.236174E+001 -1.398172E+001  1.074291E+002 -2.136246E+000  1.235806E+002
 370.0000    
              -6.102221E+000 -1.778073E+002 -4.673497E+000 -1.292107E+002 -5.689275E+000  5.956484E+001
              -4.672223E+000 -1.292206E+002 -3.004098E+000  1.002579E+002 -1.352088E+001  1.055632E+002
              -5.687469E+000  5.956665E+001 -1.351911E+001  1.055545E+002 -2.242404E+000  1.224887E+002
 380.0000    
              -6.488384E+000  1.769555E+002 -4.528986E+000 -1.321349E+002 -5.528240E+000  5.686193E+001
              -4.527947E+000 -1.321404E+002 -3.137404E+000  9.886874E+001 -1.309232E+001  1.036855E+002
              -5.526662E+000  5.686848E+001 -1.309026E+001  1.036805E+002 -2.346124E+000  1.214388E+002
 390.0000    
              -6.871074E+000  1.717482E+002 -4.400592E+000 -1.349600E+002 -5.382721E+000  5.424443E+001
              -4.399578E+000 -1.349740E+002 -3.267545E+000  9.753443E+001 -1.269583E+001  1.018193E+002
              -5.381742E+000  5.424397E+001 -1.269294E+001  1.018146E+002 -2.447713E+000  1.204205E+002
 400.0000    
              -7.246266E+000  1.665834E+002 -4.285079E+000 -1.376952E+002 -5.250794E+000  5.171218E+001
              -4.285430E+000 -1.377060E+002 -3.394331E+000  9.624806E+001 -1.232780E+001  9.997228E+001
              -5.250115E+000  5.171411E+001 -1.232511E+001  9.996790E+001 -2.547958E+000  1.194341E+002
 410.0000    
              -7.615207E+000  1.614432E+002 -4.184326E+000 -1.403485E+002 -5.133086E+000  4.926149E+001
              -4.184498E+000 -1.403585E+002 -3.517701E+000  9.500434E+001 -1.198701E+001  9.814632E+001
              -5.132128E+000  4.926545E+001 -1.198426E+001  9.814040E+001 -2.644986E+000  1.184801E+002
 420.0000    
              -7.975554E+000  1.563487E+002 -4.094522E+000 -1.429150E+002 -5.026015E+000  4.689640E+001
              -4.092958E+000 -1.429234E+002 -3.636711E+000  9.379255E+001 -1.166795E+001  9.635118E+001
              -5.025245E+000  4.689760E+001 -1.166663E+001  9.634740E+001 -2.739537E+000  1.175465E+002
 430.0000    
              -8.324370E+000  1.512885E+002 -4.013380E+000 -1.454017E+002 -4.928775E+000  4.460578E+001
              -4.012569E+000 -1.454049E+002 -3.750664E+000  9.262415E+001 -1.137141E+001  9.459366E+001
              -4.928056E+000  4.461054E+001 -1.136896E+001  9.458795E+001 -2.832187E+000  1.166419E+002
 440.0000    
              -8.661628E+000  1.462722E+002 -3.943012E+000 -1.478009E+002 -4.840418E+000  4.238909E+001
              -3.942539E+000 -1.478071E+002 -3.861988E+000  9.148681E+001 -1.109538E+001  9.288326E+001
              -4.839748E+000  4.239357E+001 -1.109176E+001  9.287658E+001 -2.922316E+000  1.157496E+002
 450.0000    
              -8.985733E+000  1.413000E+002 -3.879880E+000 -1.501204E+002 -4.761289E+000  4.025323E+001
              -3.879396E+000 -1.501283E+002 -3.967937E+000  9.037727E+001 -1.083789E+001  9.121615E+001
              -4.760124E+000  4.025286E+001 -1.083449E+001  9.120762E+001 -3.009769E+000  1.148828E+002
 460.0000    
              -9.297236E+000  1.363730E+002 -3.824811E+000 -1.523660E+002 -4.689075E+000  3.818771E+001
              -3.824330E+000 -1.523750E+002 -4.070366E+000  8.929018E+001 -1.059644E+001  8.960171E+001
              -4.688651E+000  3.818391E+001 -1.059359E+001  8.959175E+001 -3.093989E+000  1.140263E+002
 470.0000    
              -9.594391E+000  1.315060E+002 -3.775957E+000 -1.545458E+002 -4.624167E+000  3.618169E+001
              -3.774433E+000 -1.545515E+002 -4.168252E+000  8.822473E+001 -1.037052E+001  8.801343E+001
              -4.622905E+000  3.618026E+001 -1.036769E+001  8.800657E+001 -3.176356E+000  1.131839E+002
 480.0000    
              -9.874547E+000  1.266890E+002 -3.731778E+000 -1.566546E+002 -4.563768E+000  3.424047E+001
              -3.730407E+000 -1.566612E+002 -4.261109E+000  8.717893E+001 -1.015885E+001  8.648295E+001
              -4.563292E+000  3.424160E+001 -1.015612E+001  8.647614E+001 -3.255682E+000  1.123481E+002
 490.0000    
              -1.013946E+001  1.219398E+002 -3.693539E+000 -1.587015E+002 -4.509389E+000  3.235428E+001
              -3.691940E+000 -1.587038E+002 -4.349819E+000  8.615640E+001 -9.959716E+000  8.498487E+001
              -4.508164E+000  3.235849E+001 -9.957215E+000  8.498181E+001 -3.332556E+000  1.115261E+002
 500.0000    
              -1.038710E+001  1.172529E+002 -3.659764E+000 -1.606774E+002 -4.459403E+000  3.052805E+001
              -3.659119E+000 -1.606829E+002 -4.434337E+000  8.515231E+001 -9.773769E+000  8.353705E+001
              -4.458812E+000  3.052855E+001 -9.770971E+000  8.353619E+001 -3.406818E+000  1.107146E+002
 510.0000    
              -1.062007E+001  1.126737E+002 -3.630150E+000 -1.626036E+002 -4.413199E+000  2.875002E+001
              -3.629037E+000 -1.626172E+002 -4.516869E+000  8.414953E+001 -9.597458E+000  8.211404E+001
              -4.411855E+000  2.875374E+001 -9.595833E+000  8.211330E+001 -3.479087E+000  1.099024E+002
 520.0000    
              -1.083512E+001  1.081602E+002 -3.603443E+000 -1.644808E+002 -4.370488E+000  2.702563E+001
              -3.601902E+000 -1.644886E+002 -4.595165E+000  8.316670E+001 -9.430568E+000  8.073831E+001
              -4.369775E+000  2.702444E+001 -9.429100E+000  8.072930E+001 -3.548634E+000  1.091062E+002
 530.0000    
              -1.103550E+001  1.037333E+002 -3.579748E+000 -1.663041E+002 -4.331702E+000  2.534041E+001
              -3.578213E+000 -1.663127E+002 -4.669519E+000  8.220114E+001 -9.272801E+000  7.939167E+001
              -4.330772E+000  2.533992E+001 -9.271638E+000  7.938850E+001 -3.616509E+000  1.083154E+002
 540.0000    
              -1.121950E+001  9.939903E+001 -3.559832E+000 -1.680745E+002 -4.295077E+000  2.370485E+001
              -3.558506E+000 -1.680821E+002 -4.741796E+000  8.125201E+001 -9.125299E+000  7.809708E+001
              -4.294643E+000  2.370248E+001 -9.123723E+000  7.809361E+001 -3.681942E+000  1.075347E+002
 550.0000    
              -1.138935E+001  9.514900E+001 -3.541355E+000 -1.697970E+002 -4.261999E+000  2.211337E+001
              -3.540212E+000 -1.698075E+002 -4.810445E+000  8.031121E+001 -8.985170E+000  7.684465E+001
              -4.261490E+000  2.211290E+001 -8.983594E+000  7.683761E+001 -3.746193E+000  1.067681E+002
 560.0000    
              -1.154737E+001  9.099226E+001 -3.525675E+000 -1.714771E+002 -4.230791E+000  2.055794E+001
              -3.524227E+000 -1.714866E+002 -4.877355E+000  7.937820E+001 -8.852418E+000  7.561795E+001
              -4.229920E+000  2.055669E+001 -8.850397E+000  7.561690E+001 -3.808392E+000  1.060009E+002
 570.0000    
              -1.169492E+001  8.693184E+001 -3.511440E+000 -1.731180E+002 -4.202731E+000  1.904660E+001
              -3.509521E+000 -1.731244E+002 -4.941772E+000  7.845245E+001 -8.725809E+000  7.443967E+001
              -4.201602E+000  1.904468E+001 -8.724843E+000  7.443214E+001 -3.869817E+000  1.052455E+002
 580.0000    
              -1.182983E+001  8.295237E+001 -3.498588E+000 -1.747213E+002 -4.176596E+000  1.757217E+001
              -3.496507E+000 -1.747258E+002 -5.003673E+000  7.754142E+001 -8.605251E+000  7.329387E+001
              -4.175242E+000  1.756989E+001 -8.604270E+000  7.328748E+001 -3.930158E+000  1.044997E+002
 590.0000    
              -1.195452E+001  7.906774E+001 -3.487879E+000 -1.762824E+002 -4.151171E+000  1.613165E+001
              -3.486707E+000 -1.762882E+002 -5.064617E+000  7.663837E+001 -8.490844E+000  7.219429E+001
              -4.150790E+000  1.612790E+001 -8.489069E+000  7.218867E+001 -3.989270E+000  1.037575E+002
 600.0000    
              -1.207044E+001  7.528255E+001 -3.477811E+000 -1.778068E+002 -4.128263E+000  1.471996E+001
              -3.476534E+000 -1.778107E+002 -5.122373E+000  7.574069E+001 -8.381474E+000  7.111839E+001
              -4.127680E+000  1.472013E+001 -8.379798E+000  7.111160E+001 -4.046599E+000  1.030164E+002
 610.0000    
              -1.217860E+001  7.158275E+001 -3.469346E+000 -1.793006E+002 -4.105533E+000  1.334447E+001
              -3.467264E+000 -1.793076E+002 -5.179631E+000  7.485548E+001 -8.276649E+000  7.007345E+001
              -4.105524E+000  1.334408E+001 -8.274463E+000  7.006687E+001 -4.103338E+000  1.022895E+002
 620.0000    
              -1.227996E+001  6.798257E+001 -3.461407E+000  1.792398E+002 -4.085182E+000  1.199543E+001
              -3.459640E+000  1.792345E+002 -5.234301E+000  7.396972E+001 -8.176664E+000  6.905515E+001
              -4.084044E+000  1.199443E+001 -8.174377E+000  6.904348E+001 -4.158731E+000  1.015583E+002
 630.0000    
              -1.237648E+001  6.445848E+001 -3.453203E+000  1.778009E+002 -4.066441E+000  1.067712E+001
              -3.450823E+000  1.777953E+002 -5.287205E+000  7.309201E+001 -8.080445E+000  6.805965E+001
              -4.065423E+000  1.067328E+001 -8.078802E+000  6.804454E+001 -4.213292E+000  1.008345E+002
 640.0000    
              -1.246614E+001  6.104570E+001 -3.446952E+000  1.763937E+002 -4.047340E+000  9.378835E+000
              -3.444930E+000  1.763941E+002 -5.339043E+000  7.221664E+001 -7.988496E+000  6.708842E+001
              -4.046592E+000  9.379622E+000 -7.987006E+000  6.707927E+001 -4.267302E+000  1.001056E+002
 650.0000    
              -1.254835E+001  5.771638E+001 -3.441859E+000  1.750199E+002 -4.029521E+000  8.105626E+000
              -3.439463E+000  1.750173E+002 -5.390035E+000  7.134886E+001 -7.900836E+000  6.614897E+001
              -4.028772E+000  8.104316E+000 -7.899460E+000  6.614182E+001 -4.320827E+000  9.938278E+001
 660.0000    
              -1.262831E+001  5.449278E+001 -3.437490E+000  1.736729E+002 -4.012712E+000  6.848388E+000
              -3.435650E+000  1.736682E+002 -5.439371E+000  7.047628E+001 -7.817976E+000  6.522662E+001
              -4.012083E+000  6.846421E+000 -7.816845E+000  6.521645E+001 -4.372070E+000  9.865333E+001
 670.0000    
              -1.270548E+001  5.133772E+001 -3.432895E+000  1.723461E+002 -3.996552E+000  5.615448E+000
              -3.431020E+000  1.723415E+002 -5.486418E+000  6.961062E+001 -7.737623E+000  6.432593E+001
              -3.996191E+000  5.614277E+000 -7.735729E+000  6.431667E+001 -4.422371E+000  9.792374E+001
 680.0000    
              -1.278149E+001  4.826390E+001 -3.429224E+000  1.710429E+002 -3.981882E+000  4.403608E+000
              -3.426464E+000  1.710388E+002 -5.533363E+000  6.874818E+001 -7.659477E+000  6.344925E+001
              -3.981021E+000  4.404267E+000 -7.658165E+000  6.343996E+001 -4.472339E+000  9.719788E+001
 690.0000    
              -1.285330E+001  4.526349E+001 -3.425146E+000  1.697604E+002 -3.966578E+000  3.208741E+000
              -3.423193E+000  1.697572E+002 -5.579435E+000  6.789167E+001 -7.584403E+000  6.259903E+001
