!Created: 09-14-2018 at 11:58:25
!Mini-Circuits
!S3P DATA File Format
!Type: Transformer
!MODEL: NCS4-521+
!S/N: Unit 1
!Port 1: Input 50 ohm; Port 2: Output 100 ohm; Port 3: Output 100 ohm
!TEST CONDITIONS: Z:50 OHM SYSTEM, INPUT POWER = -10dBm, TEMP:25°C
!RUN#: AP180248
!REMARK: 3 Port Calibration with E CAL N4433A S/N:71121 PORT EXTENSION IS APPLIED.
!TEST FIXTURE:90-4-20-142 S/N:70538 CAL DUE:01/27/2019
!TESTED ON: NETWORK ANALYZER MODEL AG E5071C S/N 76113 CAL DUE DATE 05/10/2019
# MHZ S DB R 50
!Frequency     
!                   S11 dB    S11 DEG     S12 dB    S12 DEG     S13 dB    S13 DEG
!                   S21 dB    S21 DEG     S22 dB    S22 DEG     S23 dB    S23 DEG
!                   S31 dB    S31 DEG     S32 dB    S32 DEG     S33 dB    S33 DEG
 100.0000    
              -6.148161E-001 -4.305882E+001 -1.376740E+001  1.085620E+002 -1.299573E+001 -7.169056E+001
              -1.376402E+001  1.084604E+002 -2.642863E+000  1.240330E+002 -6.783328E+000 -1.575615E+002
              -1.300036E+001 -7.173735E+001 -6.776594E+000 -1.575612E+002 -2.590655E+000  1.076162E+002
 110.0000    
              -8.487701E-001 -4.817877E+001 -1.235695E+001  1.017383E+002 -1.158682E+001 -7.901026E+001
              -1.235168E+001  1.016618E+002 -3.022834E+000  1.192662E+002 -6.184456E+000 -1.641050E+002
              -1.159716E+001 -7.906307E+001 -6.177619E+000 -1.641089E+002 -2.959941E+000  1.012189E+002
 120.0000    
              -1.135915E+000 -5.341969E+001 -1.112122E+001  9.493432E+001 -1.035702E+001 -8.633737E+001
              -1.112203E+001  9.484353E+001 -3.439319E+000  1.147915E+002 -5.692766E+000 -1.705830E+002
              -1.037066E+001 -8.635427E+001 -5.684146E+000 -1.705965E+002 -3.377673E+000  9.514098E+001
 130.0000    
              -1.481390E+000 -5.871299E+001 -1.004474E+001  8.813210E+001 -9.289887E+000 -9.357310E+001
              -1.004571E+001  8.803712E+001 -3.886682E+000  1.107201E+002 -5.289843E+000 -1.770323E+002
              -9.305629E+000 -9.359798E+001 -5.283482E+000 -1.770403E+002 -3.843359E+000  8.944086E+001
 140.0000    
              -1.890094E+000 -6.404073E+001 -9.114923E+000  8.136217E+001 -8.365642E+000 -1.006980E+002
              -9.117624E+000  8.126421E+001 -4.355303E+000  1.071116E+002 -4.981610E+000  1.766574E+002
              -8.382680E+000 -1.007323E+002 -4.969202E+000  1.766319E+002 -4.348729E+000  8.425513E+001
 150.0000    
              -2.356375E+000 -6.937165E+001 -8.310705E+000  7.470146E+001 -7.569325E+000 -1.077031E+002
              -8.312857E+000  7.459734E+001 -4.830595E+000  1.039614E+002 -4.747870E+000  1.704732E+002
              -7.586616E+000 -1.077139E+002 -4.736343E+000  1.704506E+002 -4.887697E+000  7.963232E+001
 160.0000    
              -2.883351E+000 -7.466321E+001 -7.626997E+000  6.817634E+001 -6.890993E+000 -1.145235E+002
              -7.628229E+000  6.807516E+001 -5.302708E+000  1.013641E+002 -4.591013E+000  1.644873E+002
              -6.907496E+000 -1.145401E+002 -4.582749E+000  1.644560E+002 -5.451731E+000  7.562268E+001
 170.0000    
              -3.475254E+000 -7.990808E+001 -7.040325E+000  6.183777E+001 -6.311498E+000 -1.211265E+002
              -7.045744E+000  6.173798E+001 -5.755444E+000  9.928806E+001 -4.499617E+000  1.587478E+002
              -6.329517E+000 -1.211159E+002 -4.487548E+000  1.587234E+002 -6.024183E+000  7.232389E+001
 180.0000    
              -4.122715E+000 -8.509786E+001 -6.541755E+000  5.567710E+001 -5.822292E+000 -1.274923E+002
              -6.549310E+000  5.559448E+001 -6.165101E+000  9.772277E+001 -4.459098E+000  1.532723E+002
              -5.839125E+000 -1.274808E+002 -4.445518E+000  1.532474E+002 -6.586286E+000  6.971868E+001
 190.0000    
              -4.833171E+000 -9.024031E+001 -6.119932E+000  4.976914E+001 -5.408340E+000 -1.336063E+002
              -6.129367E+000  4.969121E+001 -6.514493E+000  9.660713E+001 -4.465667E+000  1.480541E+002
              -5.427225E+000 -1.335856E+002 -4.452759E+000  1.480555E+002 -7.122967E+000  6.783063E+001
 200.0000    
              -5.588508E+000 -9.530692E+001 -5.764595E+000  4.408342E+001 -5.062333E+000 -1.394772E+002
              -5.775701E+000  4.399333E+001 -6.798851E+000  9.582859E+001 -4.508913E+000  1.431189E+002
              -5.080283E+000 -1.394564E+002 -4.490439E+000  1.431036E+002 -7.605192E+000  6.658601E+001
 201.0000    
              -5.670901E+000 -9.583765E+001 -5.731792E+000  4.352241E+001 -5.032426E+000 -1.400324E+002
              -5.745636E+000  4.341929E+001 -6.825848E+000  9.575422E+001 -4.515850E+000  1.426142E+002
              -5.047697E+000 -1.400144E+002 -4.495298E+000  1.426231E+002 -7.652735E+000  6.652055E+001
 202.0000    
              -5.747850E+000 -9.630255E+001 -5.702609E+000  4.296589E+001 -4.999780E+000 -1.406051E+002
              -5.714194E+000  4.287465E+001 -6.846627E+000  9.570332E+001 -4.517622E+000  1.421569E+002
              -5.017191E+000 -1.405975E+002 -4.503439E+000  1.421639E+002 -7.694732E+000  6.638911E+001
 203.0000    
              -5.827923E+000 -9.680637E+001 -5.671492E+000  4.242920E+001 -4.969506E+000 -1.411656E+002
              -5.681536E+000  4.231612E+001 -6.873363E+000  9.563702E+001 -4.527875E+000  1.416725E+002
              -4.987696E+000 -1.411666E+002 -4.511571E+000  1.416786E+002 -7.738873E+000  6.633973E+001
 204.0000    
              -5.905857E+000 -9.730074E+001 -5.639645E+000  4.185635E+001 -4.938390E+000 -1.417373E+002
              -5.649587E+000  4.176167E+001 -6.893673E+000  9.557942E+001 -4.533655E+000  1.412128E+002
              -4.959484E+000 -1.417271E+002 -4.515939E+000  1.412204E+002 -7.785741E+000  6.627773E+001
 205.0000    
              -5.984040E+000 -9.779156E+001 -5.611093E+000  4.131940E+001 -4.908386E+000 -1.423057E+002
              -5.622519E+000  4.120972E+001 -6.915210E+000  9.552046E+001 -4.540436E+000  1.407289E+002
              -4.928568E+000 -1.422934E+002 -4.525353E+000  1.407499E+002 -7.827785E+000  6.619515E+001
 206.0000    
              -6.063351E+000 -9.831845E+001 -5.582681E+000  4.076044E+001 -4.880254E+000 -1.428648E+002
              -5.592182E+000  4.065293E+001 -6.940487E+000  9.546392E+001 -4.547508E+000  1.402588E+002
              -4.902073E+000 -1.428520E+002 -4.532546E+000  1.402682E+002 -7.868428E+000  6.611469E+001
 207.0000    
              -6.147818E+000 -9.885108E+001 -5.554781E+000  4.021589E+001 -4.851558E+000 -1.434216E+002
              -5.564574E+000  4.010598E+001 -6.959516E+000  9.543333E+001 -4.556160E+000  1.398036E+002
              -4.872934E+000 -1.434066E+002 -4.538105E+000  1.398101E+002 -7.910530E+000  6.606068E+001
 208.0000    
              -6.227512E+000 -9.930734E+001 -5.526016E+000  3.968259E+001 -4.825967E+000 -1.439689E+002
              -5.537376E+000  3.957391E+001 -6.977311E+000  9.535529E+001 -4.563442E+000  1.393399E+002
              -4.843727E+000 -1.439739E+002 -4.548829E+000  1.393653E+002 -7.950842E+000  6.600407E+001
 209.0000    
              -6.309605E+000 -9.983175E+001 -5.499687E+000  3.914756E+001 -4.798676E+000 -1.445278E+002
              -5.508872E+000  3.902996E+001 -6.995869E+000  9.530036E+001 -4.570742E+000  1.388927E+002
              -4.817741E+000 -1.445162E+002 -4.555926E+000  1.388817E+002 -7.991237E+000  6.593142E+001
 210.0000    
              -6.393798E+000 -1.003097E+002 -5.472623E+000  3.858928E+001 -4.770594E+000 -1.450840E+002
              -5.481503E+000  3.849567E+001 -7.013371E+000  9.525352E+001 -4.582456E+000  1.384158E+002
              -4.790542E+000 -1.450677E+002 -4.564629E+000  1.384385E+002 -8.031273E+000  6.589100E+001
 211.0000    
              -6.477755E+000 -1.008158E+002 -5.445289E+000  3.804933E+001 -4.747448E+000 -1.456364E+002
              -5.456485E+000  3.795446E+001 -7.028975E+000  9.518982E+001 -4.590254E+000  1.379874E+002
              -4.764528E+000 -1.456112E+002 -4.573113E+000  1.379979E+002 -8.066465E+000  6.585377E+001
 212.0000    
              -6.555114E+000 -1.013231E+002 -5.421573E+000  3.751767E+001 -4.723013E+000 -1.461761E+002
              -5.428793E+000  3.741638E+001 -7.045679E+000  9.514356E+001 -4.599547E+000  1.375200E+002
              -4.740844E+000 -1.461593E+002 -4.581666E+000  1.375341E+002 -8.107884E+000  6.582321E+001
 213.0000    
              -6.643200E+000 -1.018194E+002 -5.396971E+000  3.698843E+001 -4.696444E+000 -1.467364E+002
              -5.405102E+000  3.687471E+001 -7.066462E+000  9.510154E+001 -4.609511E+000  1.370805E+002
              -4.715298E+000 -1.467010E+002 -4.593759E+000  1.370989E+002 -8.142881E+000  6.576942E+001
 214.0000    
              -6.727394E+000 -1.023106E+002 -5.372397E+000  3.646243E+001 -4.671947E+000 -1.472633E+002
              -5.378723E+000  3.635371E+001 -7.077606E+000  9.503296E+001 -4.620976E+000  1.366563E+002
              -4.691309E+000 -1.472359E+002 -4.600243E+000  1.366458E+002 -8.175715E+000  6.574754E+001
 215.0000    
              -6.816495E+000 -1.028218E+002 -5.346668E+000  3.591721E+001 -4.648779E+000 -1.478037E+002
              -5.356300E+000  3.583617E+001 -7.093429E+000  9.497846E+001 -4.629600E+000  1.361923E+002
              -4.666189E+000 -1.477724E+002 -4.612085E+000  1.361949E+002 -8.211506E+000  6.570507E+001
 216.0000    
              -6.902719E+000 -1.033357E+002 -5.323853E+000  3.539027E+001 -4.625356E+000 -1.483350E+002
              -5.333927E+000  3.530109E+001 -7.110323E+000  9.491964E+001 -4.640037E+000  1.357692E+002
              -4.643028E+000 -1.483032E+002 -4.620638E+000  1.357598E+002 -8.247078E+000  6.569032E+001
 217.0000    
              -6.985539E+000 -1.038582E+002 -5.298476E+000  3.487225E+001 -4.602333E+000 -1.488755E+002
              -5.307895E+000  3.477759E+001 -7.118853E+000  9.489027E+001 -4.652223E+000  1.353185E+002
              -4.621617E+000 -1.488338E+002 -4.631197E+000  1.353297E+002 -8.279142E+000  6.565683E+001
 218.0000    
              -7.069669E+000 -1.043248E+002 -5.277016E+000  3.436966E+001 -4.579994E+000 -1.494127E+002
              -5.286090E+000  3.426361E+001 -7.130845E+000  9.482773E+001 -4.660194E+000  1.348855E+002
              -4.597966E+000 -1.493698E+002 -4.641486E+000  1.348832E+002 -8.312449E+000  6.562567E+001
 219.0000    
              -7.154623E+000 -1.048491E+002 -5.253986E+000  3.383918E+001 -4.558105E+000 -1.499300E+002
              -5.263695E+000  3.374478E+001 -7.140936E+000  9.478133E+001 -4.670367E+000  1.344556E+002
              -4.575923E+000 -1.498948E+002 -4.652466E+000  1.344606E+002 -8.341450E+000  6.561629E+001
 220.0000    
              -7.240777E+000 -1.053508E+002 -5.232311E+000  3.332975E+001 -4.535303E+000 -1.504554E+002
              -5.242324E+000  3.323025E+001 -7.153351E+000  9.476815E+001 -4.680787E+000  1.340442E+002
              -4.554066E+000 -1.504216E+002 -4.664794E+000  1.340263E+002 -8.372279E+000  6.558937E+001
 221.0000    
              -7.332088E+000 -1.058454E+002 -5.213265E+000  3.280563E+001 -4.513876E+000 -1.509819E+002
              -5.221341E+000  3.270858E+001 -7.161283E+000  9.467591E+001 -4.693386E+000  1.335950E+002
              -4.531681E+000 -1.509362E+002 -4.672067E+000  1.336105E+002 -8.403230E+000  6.559155E+001
 222.0000    
              -7.413318E+000 -1.063480E+002 -5.192582E+000  3.229337E+001 -4.494177E+000 -1.515058E+002
              -5.198462E+000  3.220012E+001 -7.172741E+000  9.462484E+001 -4.702512E+000  1.331870E+002
              -4.512226E+000 -1.514675E+002 -4.684271E+000  1.331781E+002 -8.430691E+000  6.557521E+001
 223.0000    
              -7.505075E+000 -1.068264E+002 -5.172912E+000  3.177894E+001 -4.473515E+000 -1.520109E+002
              -5.179581E+000  3.168956E+001 -7.181911E+000  9.456945E+001 -4.716124E+000  1.327639E+002
              -4.490238E+000 -1.519868E+002 -4.696109E+000  1.327560E+002 -8.457460E+000  6.558110E+001
 224.0000    
              -7.591400E+000 -1.073650E+002 -5.150672E+000  3.128273E+001 -4.453042E+000 -1.525218E+002
              -5.156914E+000  3.116951E+001 -7.191382E+000  9.452608E+001 -4.729666E+000  1.323262E+002
              -4.472500E+000 -1.524895E+002 -4.711068E+000  1.323415E+002 -8.488949E+000  6.558015E+001
 225.0000    
              -7.689784E+000 -1.078399E+002 -5.132068E+000  3.077733E+001 -4.435147E+000 -1.530447E+002
              -5.139938E+000  3.067542E+001 -7.197014E+000  9.448180E+001 -4.739353E+000  1.319340E+002
              -4.451322E+000 -1.530041E+002 -4.723983E+000  1.319382E+002 -8.508528E+000  6.557651E+001
 226.0000    
              -7.766615E+000 -1.083372E+002 -5.111310E+000  3.027388E+001 -4.416204E+000 -1.535513E+002
              -5.117938E+000  3.019297E+001 -7.205659E+000  9.441154E+001 -4.754317E+000  1.315348E+002
              -4.432620E+000 -1.535266E+002 -4.732978E+000  1.315190E+002 -8.536481E+000  6.557838E+001
 227.0000    
              -7.856733E+000 -1.088463E+002 -5.094059E+000  2.978688E+001 -4.396686E+000 -1.540585E+002
              -5.102966E+000  2.969505E+001 -7.212679E+000  9.436199E+001 -4.765584E+000  1.311321E+002
              -4.413045E+000 -1.540274E+002 -4.744315E+000  1.310942E+002 -8.559623E+000  6.558014E+001
 228.0000    
              -7.951728E+000 -1.093269E+002 -5.075267E+000  2.929302E+001 -4.379137E+000 -1.545565E+002
              -5.083004E+000  2.919531E+001 -7.216137E+000  9.430952E+001 -4.778861E+000  1.307197E+002
              -4.395379E+000 -1.545255E+002 -4.759369E+000  1.307012E+002 -8.583058E+000  6.557412E+001
 229.0000    
              -8.037711E+000 -1.098452E+002 -5.055988E+000  2.879628E+001 -4.361282E+000 -1.550613E+002
              -5.065681E+000  2.870787E+001 -7.219606E+000  9.424167E+001 -4.792010E+000  1.303122E+002
              -4.377377E+000 -1.550303E+002 -4.770137E+000  1.303049E+002 -8.605922E+000  6.558001E+001
 230.0000    
              -8.136821E+000 -1.104028E+002 -5.039638E+000  2.831576E+001 -4.342964E+000 -1.555655E+002
              -5.048572E+000  2.820991E+001 -7.227624E+000  9.419530E+001 -4.804261E+000  1.299384E+002
              -4.360313E+000 -1.555124E+002 -4.784526E+000  1.298952E+002 -8.626562E+000  6.558773E+001
 231.0000    
              -8.229575E+000 -1.108886E+002 -5.022739E+000  2.783125E+001 -4.325700E+000 -1.560609E+002
              -5.033091E+000  2.772908E+001 -7.229122E+000  9.413188E+001 -4.815979E+000  1.295110E+002
              -4.341700E+000 -1.560190E+002 -4.796077E+000  1.294982E+002 -8.648265E+000  6.559178E+001
 232.0000    
              -8.317510E+000 -1.113798E+002 -5.001323E+000  2.733577E+001 -4.309124E+000 -1.565543E+002
              -5.013721E+000  2.724876E+001 -7.231435E+000  9.408141E+001 -4.831919E+000  1.291357E+002
              -4.325184E+000 -1.565234E+002 -4.811099E+000  1.291215E+002 -8.663205E+000  6.561423E+001
 233.0000    
              -8.414911E+000 -1.118830E+002 -4.987024E+000  2.685515E+001 -4.291862E+000 -1.570368E+002
              -4.997301E+000  2.676216E+001 -7.237308E+000  9.399393E+001 -4.842914E+000  1.287257E+002
              -4.308955E+000 -1.570063E+002 -4.820712E+000  1.287306E+002 -8.684837E+000  6.560457E+001
 234.0000    
              -8.504116E+000 -1.124439E+002 -4.972407E+000  2.636978E+001 -4.275660E+000 -1.575332E+002
              -4.979813E+000  2.626671E+001 -7.238275E+000  9.393868E+001 -4.856099E+000  1.283486E+002
              -4.294140E+000 -1.574928E+002 -4.833025E+000  1.283212E+002 -8.703267E+000  6.560464E+001
 235.0000    
              -8.602165E+000 -1.129376E+002 -4.954677E+000  2.589436E+001 -4.259222E+000 -1.580127E+002
              -4.961722E+000  2.579043E+001 -7.241135E+000  9.389542E+001 -4.871229E+000  1.279604E+002
              -4.277382E+000 -1.579790E+002 -4.848859E+000  1.279322E+002 -8.718151E+000  6.560777E+001
 236.0000    
              -8.694952E+000 -1.133845E+002 -4.940575E+000  2.540743E+001 -4.243597E+000 -1.585089E+002
              -4.947416E+000  2.532901E+001 -7.243035E+000  9.381264E+001 -4.881748E+000  1.275933E+002
              -4.260267E+000 -1.584726E+002 -4.859792E+000  1.275483E+002 -8.732190E+000  6.562693E+001
 237.0000    
              -8.793706E+000 -1.139561E+002 -4.922388E+000  2.494594E+001 -4.228211E+000 -1.589849E+002
              -4.932545E+000  2.484371E+001 -7.243035E+000  9.373490E+001 -4.900135E+000  1.271814E+002
              -4.245469E+000 -1.589458E+002 -4.877838E+000  1.272030E+002 -8.748289E+000  6.566284E+001
 238.0000    
              -8.889742E+000 -1.144670E+002 -4.908851E+000  2.446942E+001 -4.212488E+000 -1.594615E+002
              -4.917900E+000  2.436819E+001 -7.242260E+000  9.368590E+001 -4.911912E+000  1.268177E+002
              -4.228973E+000 -1.594248E+002 -4.891279E+000  1.267824E+002 -8.760580E+000  6.565986E+001
 239.0000    
              -8.983287E+000 -1.149701E+002 -4.894039E+000  2.399176E+001 -4.198109E+000 -1.599420E+002
              -4.902696E+000  2.390842E+001 -7.242714E+000  9.358272E+001 -4.922192E+000  1.264207E+002
              -4.214940E+000 -1.599026E+002 -4.906482E+000  1.264047E+002 -8.777660E+000  6.568990E+001
 240.0000    
              -9.071433E+000 -1.154895E+002 -4.876710E+000  2.353108E+001 -4.184481E+000 -1.604188E+002
              -4.886917E+000  2.344540E+001 -7.240724E+000  9.354090E+001 -4.936654E+000  1.260700E+002
              -4.200621E+000 -1.603790E+002 -4.919927E+000  1.260388E+002 -8.785564E+000  6.567905E+001
 241.0000    
              -9.173254E+000 -1.160105E+002 -4.863079E+000  2.306869E+001 -4.169458E+000 -1.608893E+002
              -4.872467E+000  2.297399E+001 -7.242030E+000  9.345592E+001 -4.953011E+000  1.256959E+002
              -4.187186E+000 -1.608462E+002 -4.932544E+000  1.256578E+002 -8.799700E+000  6.570131E+001
 242.0000    
              -9.270558E+000 -1.165695E+002 -4.849590E+000  2.259795E+001 -4.154552E+000 -1.613551E+002
              -4.859874E+000  2.250549E+001 -7.237604E+000  9.337263E+001 -4.966179E+000  1.253203E+002
              -4.172873E+000 -1.613154E+002 -4.944161E+000  1.253063E+002 -8.813723E+000  6.571207E+001
 243.0000    
              -9.369073E+000 -1.170782E+002 -4.834387E+000  2.214083E+001 -4.141522E+000 -1.618285E+002
              -4.847192E+000  2.205604E+001 -7.234639E+000  9.329930E+001 -4.977824E+000  1.249684E+002
              -4.159293E+000 -1.617833E+002 -4.959103E+000  1.249312E+002 -8.820404E+000  6.571789E+001
 244.0000    
              -9.461469E+000 -1.176252E+002 -4.821582E+000  2.168291E+001 -4.128863E+000 -1.622996E+002
              -4.832163E+000  2.158564E+001 -7.234782E+000  9.322752E+001 -4.992781E+000  1.246089E+002
              -4.147397E+000 -1.622496E+002 -4.975119E+000  1.245526E+002 -8.829532E+000  6.574380E+001
 245.0000    
              -9.560794E+000 -1.181511E+002 -4.807765E+000  2.121856E+001 -4.115276E+000 -1.627650E+002
              -4.820401E+000  2.114122E+001 -7.229643E+000  9.312622E+001 -5.009469E+000  1.242294E+002
              -4.132642E+000 -1.627136E+002 -4.986234E+000  1.242026E+002 -8.836407E+000  6.576229E+001
 246.0000    
              -9.656643E+000 -1.186841E+002 -4.795296E+000  2.076319E+001 -4.102128E+000 -1.632212E+002
              -4.805854E+000  2.067819E+001 -7.226874E+000  9.304075E+001 -5.022370E+000  1.238691E+002
              -4.120343E+000 -1.631738E+002 -5.002163E+000  1.238408E+002 -8.846374E+000  6.579856E+001
 247.0000    
              -9.760534E+000 -1.192189E+002 -4.782722E+000  2.031196E+001 -4.089766E+000 -1.636793E+002
              -4.794966E+000  2.022658E+001 -7.223118E+000  9.296941E+001 -5.036085E+000  1.235365E+002
              -4.106522E+000 -1.636252E+002 -5.014083E+000  1.234856E+002 -8.853621E+000  6.578931E+001
 248.0000    
              -9.858021E+000 -1.197056E+002 -4.769163E+000  1.986474E+001 -4.077178E+000 -1.641393E+002
              -4.780444E+000  1.978207E+001 -7.217791E+000  9.285935E+001 -5.047135E+000  1.231738E+002
