!Created: 12-07-2012 at 15:55:32
!MODEL: TCM1-63AX+
! ED15043/5
!S/N: Unit 1
! Port1-Pin 3( Pri DOT), Port 2-Pin 6 (SEC DOT) and Port 3-Pin 4 (Secondary), Groung -Pin Pi2 (Primary), Not used Pins 1 & 5
! Port Extension Performed
#MHz S dB R 50
!Frequency        S11 dB  S11 DEG   S12 dB  S12 DEG   S13 dB  S13 DEG
!                 S21 dB  S21 DEG   S22 dB  S22 DEG   S23 dB  S23 DEG
!                 S31 dB  S31 DEG   S32 dB  S32 DEG   S33 dB  S33 DEG
   1.0000     -9.792680E+000  1.146619E+002 -6.746921E+000  1.840166E+001 -6.998207E+000 -1.607410E+002
              -6.745637E+000  1.819076E+001 -6.944114E+000  1.369492E+002 -1.112667E+001  3.469360E+001
              -6.993876E+000 -1.610007E+002 -1.110750E+001  3.458988E+001 -6.698774E+000  1.378406E+002
   2.0000     -1.344347E+001  9.405033E+001 -5.917784E+000  1.166437E+001 -6.093650E+000 -1.675338E+002
              -5.922048E+000  1.160170E+001 -1.033716E+001  1.267257E+002 -9.233555E+000  2.371228E+001
              -6.090639E+000 -1.676195E+002 -9.218370E+000  2.370294E+001 -1.001921E+001  1.277209E+002
   3.0000     -1.557615E+001  7.914233E+001 -5.630933E+000  8.547886E+000 -5.762275E+000 -1.707875E+002
              -5.631617E+000  8.509120E+000 -1.279881E+001  1.215713E+002 -8.534558E+000  1.790588E+001
              -5.759335E+000 -1.708210E+002 -8.525385E+000  1.787327E+001 -1.243338E+001  1.226102E+002
   4.0000     -1.698116E+001  6.783023E+001 -5.499329E+000  6.644634E+000 -5.608213E+000 -1.728048E+002
              -5.492786E+000  6.590834E+000 -1.475901E+001  1.190676E+002 -8.206143E+000  1.420537E+001
              -5.599362E+000 -1.728610E+002 -8.198496E+000  1.418643E+001 -1.435879E+001  1.201235E+002
   5.0000     -1.793196E+001  5.877174E+001 -5.429035E+000  5.364946E+000 -5.522351E+000 -1.741848E+002
              -5.421309E+000  5.338334E+000 -1.634887E+001  1.179210E+002 -8.020365E+000  1.175222E+001
              -5.513032E+000 -1.742148E+002 -8.011304E+000  1.175345E+001 -1.592446E+001  1.190073E+002
   6.0000     -1.861217E+001  5.150966E+001 -5.385688E+000  4.438788E+000 -5.476407E+000 -1.751626E+002
              -5.382295E+000  4.422408E+000 -1.772114E+001  1.178163E+002 -7.907101E+000  9.960991E+000
              -5.468897E+000 -1.751856E+002 -7.899085E+000  9.935352E+000 -1.725804E+001  1.190129E+002
   7.0000     -1.909031E+001  4.554532E+001 -5.361244E+000  3.738951E+000 -5.445350E+000 -1.759180E+002
              -5.355636E+000  3.728973E+000 -1.892839E+001  1.181094E+002 -7.827545E+000  8.537420E+000
              -5.436913E+000 -1.759402E+002 -7.823537E+000  8.527231E+000 -1.842813E+001  1.193382E+002
   8.0000     -1.946480E+001  4.083931E+001 -5.348763E+000  3.218744E+000 -5.427167E+000 -1.765038E+002
              -5.342408E+000  3.190059E+000 -1.993953E+001  1.190933E+002 -7.783242E+000  7.446694E+000
              -5.419821E+000 -1.765214E+002 -7.776919E+000  7.471174E+000 -1.939235E+001  1.202959E+002
   9.0000     -1.973196E+001  3.678508E+001 -5.339460E+000  2.784721E+000 -5.414208E+000 -1.769816E+002
              -5.332257E+000  2.766835E+000 -2.085431E+001  1.202306E+002 -7.750216E+000  6.574900E+000
              -5.405912E+000 -1.769943E+002 -7.744236E+000  6.571887E+000 -2.026879E+001  1.213957E+002
  10.0000     -1.994586E+001  3.340187E+001 -5.334604E+000  2.443943E+000 -5.408219E+000 -1.773756E+002
              -5.327102E+000  2.415554E+000 -2.164977E+001  1.216255E+002 -7.731646E+000  5.863333E+000
              -5.401012E+000 -1.773848E+002 -7.724609E+000  5.879384E+000 -2.102206E+001  1.227468E+002
  12.0000     -2.025528E+001  2.800376E+001 -5.329329E+000  1.888854E+000 -5.402287E+000 -1.780018E+002
              -5.321717E+000  1.853653E+000 -2.299666E+001  1.250679E+002 -7.707560E+000  4.738167E+000
              -5.394162E+000 -1.780085E+002 -7.698993E+000  4.755088E+000 -2.229686E+001  1.259351E+002
  13.6000     -2.042911E+001  2.468227E+001 -5.328690E+000  1.546332E+000 -5.401467E+000 -1.783763E+002
              -5.322167E+000  1.511337E+000 -2.384685E+001  1.280835E+002 -7.697910E+000  4.070637E+000
              -5.392732E+000 -1.783894E+002 -7.689279E+000  4.087440E+000 -2.308198E+001  1.286184E+002
  15.2000     -2.057612E+001  2.201488E+001 -5.330103E+000  1.271864E+000 -5.401253E+000 -1.786962E+002
              -5.324523E+000  1.233861E+000 -2.454273E+001  1.312218E+002 -7.692327E+000  3.524299E+000
              -5.392353E+000 -1.787082E+002 -7.683939E+000  3.543609E+000 -2.373705E+001  1.313796E+002
  16.8000     -2.070075E+001  1.983636E+001 -5.333581E+000  1.022311E+000 -5.402409E+000 -1.789571E+002
              -5.327663E+000  1.000770E+000 -2.511072E+001  1.343841E+002 -7.694463E+000  3.078305E+000
              -5.394566E+000 -1.789803E+002 -7.686322E+000  3.098727E+000 -2.423915E+001  1.342152E+002
  18.4000     -2.081155E+001  1.807681E+001 -5.336627E+000  8.405605E-001 -5.407081E+000 -1.791910E+002
              -5.328964E+000  8.065735E-001 -2.553134E+001  1.371766E+002 -7.701048E+000  2.715091E+000
              -5.395239E+000 -1.791929E+002 -7.690690E+000  2.736267E+000 -2.463984E+001  1.367064E+002
  20.0000     -2.091409E+001  1.658701E+001 -5.342060E+000  6.778474E-001 -5.408437E+000 -1.793737E+002
              -5.333090E+000  6.338703E-001 -2.588710E+001  1.399084E+002 -7.706726E+000  2.417551E+000
              -5.398150E+000 -1.793869E+002 -7.698385E+000  2.427060E+000 -2.495614E+001  1.390135E+002
  40.7813     -2.154370E+001  9.582163E+000 -5.376394E+000 -4.172757E-001 -5.441460E+000  1.792709E+002
              -5.365502E+000 -4.208017E-001 -2.661853E+001  1.568916E+002 -7.759911E+000  7.924351E-001
              -5.428285E+000  1.792679E+002 -7.754089E+000  7.776691E-001 -2.565285E+001  1.525496E+002
  61.5625     -2.159150E+001  9.124848E+000 -5.393154E+000 -9.268368E-001 -5.461570E+000  1.785202E+002
              -5.383745E+000 -9.347187E-001 -2.651410E+001  1.576356E+002 -7.789103E+000  3.832058E-001
              -5.448700E+000  1.785238E+002 -7.783074E+000  3.776458E-001 -2.551613E+001  1.512570E+002
  82.3438     -2.148988E+001  9.341217E+000 -5.400842E+000 -1.324174E+000 -5.469172E+000  1.779238E+002
              -5.391629E+000 -1.321155E+000 -2.651835E+001  1.554778E+002 -7.796631E+000  2.418991E-001
              -5.460424E+000  1.779348E+002 -7.796965E+000  2.170488E-001 -2.536652E+001  1.475497E+002
 103.1250     -2.132002E+001  9.781511E+000 -5.398803E+000 -1.686510E+000 -5.472222E+000  1.773335E+002
              -5.392286E+000 -1.697072E+000 -2.646649E+001  1.526785E+002 -7.796881E+000  1.047022E-001
              -5.463813E+000  1.773559E+002 -7.795273E+000  1.126129E-001 -2.516555E+001  1.430641E+002
 123.9063     -2.111357E+001  8.769223E+000 -5.400857E+000 -2.013054E+000 -5.478772E+000  1.768315E+002
              -5.391997E+000 -1.958940E+000 -2.673111E+001  1.501007E+002 -7.810059E+000  1.260114E-001
              -5.466962E+000  1.768882E+002 -7.810703E+000  1.088608E-001 -2.522360E+001  1.388548E+002
 144.6875     -2.096153E+001  1.026286E+001 -5.394406E+000 -2.415212E+000 -5.465287E+000  1.762441E+002
              -5.383752E+000 -2.418507E+000 -2.649840E+001  1.469183E+002 -7.785729E+000  3.221880E-002
              -5.460389E+000  1.762578E+002 -7.792863E+000  1.215069E-002 -2.484202E+001  1.348009E+002
 165.4688     -2.080612E+001  1.120753E+001 -5.380860E+000 -2.785708E+000 -5.463767E+000  1.756793E+002
              -5.372605E+000 -2.784905E+000 -2.630876E+001  1.436715E+002 -7.774712E+000 -9.411523E-002
              -5.456078E+000  1.756879E+002 -7.778523E+000 -1.146756E-001 -2.448004E+001  1.302725E+002
 186.2500     -2.061191E+001  1.145321E+001 -5.371055E+000 -3.122531E+000 -5.467525E+000  1.751114E+002
              -5.365022E+000 -3.104663E+000 -2.622186E+001  1.403946E+002 -7.776665E+000 -2.305947E-001
              -5.456866E+000  1.751580E+002 -7.776882E+000 -2.165976E-001 -2.413932E+001  1.256171E+002
 207.0313     -2.042767E+001  1.173017E+001 -5.361802E+000 -3.485362E+000 -5.457704E+000  1.745634E+002
              -5.354990E+000 -3.477191E+000 -2.619248E+001  1.375141E+002 -7.769945E+000 -3.031688E-001
              -5.446960E+000  1.746107E+002 -7.770600E+000 -2.958520E-001 -2.381336E+001  1.216973E+002
 227.8125     -2.025934E+001  1.184601E+001 -5.352201E+000 -3.856558E+000 -5.451199E+000  1.740319E+002
              -5.344307E+000 -3.862436E+000 -2.620285E+001  1.345050E+002 -7.765955E+000 -3.732275E-001
              -5.442267E+000  1.740640E+002 -7.773991E+000 -3.490307E-001 -2.346864E+001  1.183861E+002
 248.5938     -2.005832E+001  1.182971E+001 -5.342648E+000 -4.240551E+000 -5.441075E+000  1.734843E+002
              -5.332621E+000 -4.250210E+000 -2.623170E+001  1.312085E+002 -7.761237E+000 -4.499620E-001
              -5.431826E+000  1.735119E+002 -7.769258E+000 -4.313203E-001 -2.316561E+001  1.152083E+002
 269.3750     -1.987402E+001  1.195111E+001 -5.330376E+000 -4.609385E+000 -5.435851E+000  1.729384E+002
              -5.321957E+000 -4.613316E+000 -2.617101E+001  1.280366E+002 -7.760276E+000 -5.269361E-001
              -5.430239E+000  1.729692E+002 -7.769198E+000 -5.055620E-001 -2.285255E+001  1.124296E+002
 290.1563     -1.969656E+001  1.205340E+001 -5.317976E+000 -4.996334E+000 -5.424751E+000  1.723817E+002
              -5.309592E+000 -4.980382E+000 -2.608503E+001  1.251232E+002 -7.753310E+000 -6.013510E-001
              -5.417668E+000  1.724220E+002 -7.761662E+000 -6.044981E-001 -2.259527E+001  1.096212E+002
 310.9375     -1.957075E+001  1.216116E+001 -5.302437E+000 -5.391178E+000 -5.415702E+000  1.718460E+002
              -5.296260E+000 -5.371884E+000 -2.603286E+001  1.225992E+002 -7.748900E+000 -6.736410E-001
              -5.409345E+000  1.718796E+002 -7.762565E+000 -6.670737E-001 -2.232973E+001  1.071053E+002
 331.7188     -1.948163E+001  1.186484E+001 -5.289679E+000 -5.777369E+000 -5.405243E+000  1.712668E+002
              -5.282088E+000 -5.767749E+000 -2.606785E+001  1.200253E+002 -7.745999E+000 -7.359197E-001
              -5.398075E+000  1.712952E+002 -7.761993E+000 -7.582400E-001 -2.211773E+001  1.045573E+002
 352.5000     -1.938648E+001  1.145512E+001 -5.276271E+000 -6.188532E+000 -5.393098E+000  1.706971E+002
              -5.268120E+000 -6.175085E+000 -2.612149E+001  1.173286E+002 -7.742011E+000 -7.935441E-001
              -5.386080E+000  1.707401E+002 -7.758474E+000 -8.134633E-001 -2.186997E+001  1.021594E+002
 373.2813     -1.930041E+001  1.092723E+001 -5.262189E+000 -6.587607E+000 -5.383070E+000  1.701404E+002
              -5.253145E+000 -6.581110E+000 -2.612680E+001  1.146856E+002 -7.734185E+000 -8.446541E-001
              -5.376210E+000  1.701747E+002 -7.754360E+000 -8.765181E-001 -2.162827E+001  1.002293E+002
 394.0625     -1.919494E+001  1.029138E+001 -5.247808E+000 -6.983505E+000 -5.372332E+000  1.695792E+002
              -5.239127E+000 -6.978347E+000 -2.605480E+001  1.121771E+002 -7.724409E+000 -9.165339E-001
              -5.364986E+000  1.695886E+002 -7.747818E+000 -9.458420E-001 -2.139307E+001  9.852962E+001
 414.8438     -1.909085E+001  9.786238E+000 -5.232960E+000 -7.392862E+000 -5.359807E+000  1.690227E+002
              -5.224821E+000 -7.393099E+000 -2.589246E+001  1.100544E+002 -7.717452E+000 -1.026298E+000
              -5.353205E+000  1.690272E+002 -7.742066E+000 -1.046312E+000 -2.113291E+001  9.683057E+001
 435.6250     -1.901232E+001  9.109198E+000 -5.219000E+000 -7.795290E+000 -5.350493E+000  1.684292E+002
              -5.210603E+000 -7.795226E+000 -2.578426E+001  1.082315E+002 -7.717486E+000 -1.138884E+000
              -5.342200E+000  1.684263E+002 -7.741540E+000 -1.189404E+000 -2.092304E+001  9.497233E+001
 456.4063     -1.893560E+001  8.445923E+000 -5.203463E+000 -8.221657E+000 -5.335973E+000  1.678706E+002
              -5.195903E+000 -8.219799E+000 -2.571023E+001  1.064104E+002 -7.716466E+000 -1.223919E+000
              -5.331003E+000  1.678629E+002 -7.743164E+000 -1.256021E+000 -2.068091E+001  9.307417E+001
 477.1875     -1.887004E+001  7.539289E+000 -5.186661E+000 -8.631660E+000 -5.325248E+000  1.673032E+002
              -5.179925E+000 -8.636158E+000 -2.568317E+001  1.044093E+002 -7.715613E+000 -1.295201E+000
              -5.320966E+000  1.672855E+002 -7.741800E+000 -1.336079E+000 -2.045913E+001  9.125692E+001
 497.9688     -1.879637E+001  6.511426E+000 -5.173678E+000 -9.055301E+000 -5.313437E+000  1.667344E+002
              -5.166581E+000 -9.068703E+000 -2.563956E+001  1.021603E+002 -7.715813E+000 -1.372230E+000
              -5.308308E+000  1.667046E+002 -7.743022E+000 -1.422978E+000 -2.025160E+001  8.967712E+001
 518.7500     -1.869934E+001  5.674881E+000 -5.159483E+000 -9.486633E+000 -5.302069E+000  1.661656E+002
              -5.153326E+000 -9.493947E+000 -2.553262E+001  1.001629E+002 -7.718559E+000 -1.453239E+000
              -5.297952E+000  1.661206E+002 -7.746909E+000 -1.502805E+000 -2.004750E+001  8.838501E+001
 539.5313     -1.859904E+001  4.790328E+000 -5.145140E+000 -9.905183E+000 -5.290488E+000  1.655573E+002
              -5.138561E+000 -9.923897E+000 -2.541997E+001  9.860977E+001 -7.722671E+000 -1.534279E+000
              -5.284661E+000  1.655121E+002 -7.749977E+000 -1.626029E+000 -1.989063E+001  8.700763E+001
 560.3125     -1.851976E+001  4.078271E+000 -5.128438E+000 -1.034259E+001 -5.279201E+000  1.649759E+002
              -5.123668E+000 -1.036369E+001 -2.537210E+001  9.744321E+001 -7.729459E+000 -1.574086E+000
              -5.273091E+000  1.649341E+002 -7.754463E+000 -1.682909E+000 -1.974008E+001  8.546492E+001
 581.0938     -1.846887E+001  3.129595E+000 -5.114031E+000 -1.077301E+001 -5.270042E+000  1.643902E+002
              -5.109239E+000 -1.079192E+001 -2.543904E+001  9.611033E+001 -7.734971E+000 -1.613888E+000
              -5.262931E+000  1.643329E+002 -7.760544E+000 -1.733642E+000 -1.961223E+001  8.371978E+001
 601.8750     -1.843103E+001  2.218752E+000 -5.098168E+000 -1.122110E+001 -5.258656E+000  1.638232E+002
              -5.094440E+000 -1.123116E+001 -2.550093E+001  9.447572E+001 -7.737728E+000 -1.638967E+000
              -5.251172E+000  1.637637E+002 -7.764541E+000 -1.756193E+000 -1.943838E+001  8.212686E+001
 622.6563     -1.839484E+001  1.110195E+000 -5.083427E+000 -1.166733E+001 -5.246825E+000  1.632317E+002
              -5.081224E+000 -1.169684E+001 -2.551812E+001  9.283128E+001 -7.739273E+000 -1.646406E+000
              -5.240790E+000  1.631752E+002 -7.766012E+000 -1.780913E+000 -1.925854E+001  8.087288E+001
 643.4375     -1.833322E+001 -8.230566E-002 -5.071623E+000 -1.212996E+001 -5.237566E+000  1.626272E+002
              -5.066671E+000 -1.215787E+001 -2.547101E+001  9.138499E+001 -7.736254E+000 -1.680006E+000
              -5.229501E+000  1.625674E+002 -7.762870E+000 -1.864592E+000 -1.908694E+001  7.987959E+001
 664.2188     -1.825116E+001 -1.228995E+000 -5.057679E+000 -1.258042E+001 -5.227089E+000  1.620572E+002
              -5.054052E+000 -1.261029E+001 -2.540416E+001  9.020370E+001 -7.733583E+000 -1.712512E+000
              -5.219308E+000  1.619911E+002 -7.761875E+000 -1.883883E+000 -1.891049E+001  7.895060E+001
 685.0000     -1.815202E+001 -2.460146E+000 -5.045240E+000 -1.303409E+001 -5.218945E+000  1.614711E+002
              -5.042332E+000 -1.305797E+001 -2.536976E+001  8.899352E+001 -7.732292E+000 -1.773691E+000
              -5.208436E+000  1.614007E+002 -7.758621E+000 -1.963040E+000 -1.875792E+001  7.776618E+001
 705.7813     -1.806195E+001 -3.511044E+000 -5.030920E+000 -1.349767E+001 -5.208318E+000  1.608974E+002
              -5.026902E+000 -1.352939E+001 -2.534402E+001  8.775506E+001 -7.730268E+000 -1.841801E+000
              -5.196319E+000  1.608312E+002 -7.756720E+000 -2.029712E+000 -1.856532E+001  7.657081E+001
 726.5625     -1.800208E+001 -4.600845E+000 -5.017018E+000 -1.396146E+001 -5.198524E+000  1.603199E+002
              -5.013326E+000 -1.398969E+001 -2.531508E+001  8.624075E+001 -7.732751E+000 -1.890317E+000
              -5.183299E+000  1.602528E+002 -7.757827E+000 -2.108282E+000 -1.837049E+001  7.548737E+001
 747.3438     -1.794720E+001 -5.749058E+000 -5.005218E+000 -1.442155E+001 -5.185290E+000  1.597429E+002
              -5.000329E+000 -1.446289E+001 -2.523364E+001  8.448604E+001 -7.736733E+000 -1.952350E+000
              -5.169269E+000  1.596703E+002 -7.758699E+000 -2.175185E+000 -1.817561E+001  7.453255E+001
 768.1250     -1.787913E+001 -6.922218E+000 -4.992241E+000 -1.487703E+001 -5.171021E+000  1.591745E+002
              -4.987156E+000 -1.491652E+001 -2.511773E+001  8.285214E+001 -7.735840E+000 -2.012328E+000
              -5.154268E+000  1.590866E+002 -7.760685E+000 -2.232403E+000 -1.799103E+001  7.374384E+001
 788.9063     -1.778106E+001 -8.308992E+000 -4.978690E+000 -1.536063E+001 -5.160337E+000  1.585720E+002
              -4.976503E+000 -1.538818E+001 -2.504164E+001  8.148415E+001 -7.740277E+000 -2.079836E+000
              -5.142396E+000  1.584723E+002 -7.758624E+000 -2.334960E+000 -1.784829E+001  7.271534E+001
 809.6875     -1.766745E+001 -9.466356E+000 -4.965322E+000 -1.581546E+001 -5.149619E+000  1.579747E+002
              -4.960280E+000 -1.586293E+001 -2.496776E+001  8.061765E+001 -7.743347E+000 -2.153636E+000
              -5.131875E+000  1.578865E+002 -7.762636E+000 -2.377363E+000 -1.767863E+001  7.165269E+001
 830.4688     -1.756419E+001 -1.055774E+001 -4.949748E+000 -1.628278E+001 -5.137274E+000  1.573898E+002
              -4.948006E+000 -1.633246E+001 -2.493681E+001  7.953348E+001 -7.746025E+000 -2.196893E+000
              -5.119393E+000  1.573042E+002 -7.760461E+000 -2.469539E+000 -1.751367E+001  7.054978E+001
 851.2500     -1.746761E+001 -1.143906E+001 -4.935776E+000 -1.677836E+001 -5.122190E+000  1.568225E+002
              -4.933113E+000 -1.681977E+001 -2.486920E+001  7.805225E+001 -7.748622E+000 -2.266460E+000
              -5.101972E+000  1.567517E+002 -7.761850E+000 -2.536134E+000 -1.732459E+001  6.962028E+001
 872.0313     -1.740210E+001 -1.236660E+001 -4.923304E+000 -1.726977E+001 -5.107669E+000  1.562182E+002
              -4.918843E+000 -1.730845E+001 -2.478728E+001  7.644442E+001 -7.751970E+000 -2.329753E+000
              -5.084249E+000  1.561310E+002 -7.764121E+000 -2.632789E+000 -1.715837E+001  6.890414E+001
 892.8125     -1.735036E+001 -1.350449E+001 -4.910905E+000 -1.776650E+001 -5.092225E+000  1.555740E+002
              -4.905368E+000 -1.783192E+001 -2.471938E+001  7.492854E+001 -7.756139E+000 -2.412817E+000
              -5.070321E+000  1.555007E+002 -7.766809E+000 -2.719471E+000 -1.701329E+001  6.815551E+001
 913.5938     -1.729473E+001 -1.454615E+001 -4.895975E+000 -1.830041E+001 -5.080855E+000  1.549432E+002
              -4.891148E+000 -1.836030E+001 -2.464102E+001  7.368047E+001 -7.762887E+000 -2.495580E+000
              -5.058811E+000  1.548785E+002 -7.772230E+000 -2.790527E+000 -1.687277E+001  6.735253E+001
 934.3750     -1.720423E+001 -1.556746E+001 -4.885031E+000 -1.883209E+001 -5.071599E+000  1.543188E+002
              -4.882542E+000 -1.887891E+001 -2.458378E+001  7.230580E+001 -7.764703E+000 -2.578631E+000
              -5.048264E+000  1.542637E+002 -7.772765E+000 -2.883895E+000 -1.674960E+001  6.634978E+001
 955.1563     -1.710407E+001 -1.627710E+001 -4.877044E+000 -1.933520E+001 -5.060865E+000  1.537299E+002
              -4.872037E+000 -1.938601E+001 -2.451974E+001  7.077835E+001 -7.768227E+000 -2.651707E+000
              -5.036426E+000  1.536729E+002 -7.774269E+000 -2.943008E+000 -1.659299E+001  6.542632E+001
 975.9375     -1.703422E+001 -1.690855E+001 -4.866146E+000 -1.983440E+001 -5.046557E+000  1.531135E+002
              -4.861860E+000 -1.988642E+001 -2.444771E+001  6.899593E+001 -7.770833E+000 -2.757617E+000
              -5.023972E+000  1.530580E+002 -7.774539E+000 -3.027495E+000 -1.643546E+001  6.455331E+001
